! Touchstone file created by CIA_Reference.py on 2019-10-01
# MHz S MA R 15.000000
!MARKERS  35.000000 40.000000 47.500000 55.000000 60.000000
35.000000 0.9859263   70.6135 0.0621478  172.7824 0.0121239 -119.7421 0.0105168   99.0531 ! row 1
          0.0041312    8.4771 0.0111978  -40.1159 0.0421072  -22.5170 0.0090622  -22.1197
          0.0044793  -92.0564 0.0062900   94.2350 0.0052838  -18.7825 0.0132927  -42.4690
          0.0109194  -28.7990 0.0065188  -22.4038 0.0029877  -34.8165 0.0021677  101.0327
          0.0070594  -44.8430 0.0142457  -48.3087 0.0073601  -33.2801 0.0051790  -25.8109
          0.0017345  -16.5067 0.0004500  100.6811 0.0093735  -53.6296 0.0151468  -53.3439
          0.0582212  168.9729 0.9786772   69.9180 0.0645734  177.5857 0.0143506   77.6031 ! row 2
          0.0061733   11.7768 0.0137387  -39.9063 0.0155603  -28.8373 0.0441488  -22.7286
          0.0101713  -23.8878 0.0066959   85.2333 0.0072407  -18.8865 0.0164195  -42.7840
          0.0098863  -36.5589 0.0134237  -27.2835 0.0081454  -20.3815 0.0023938  132.2777
          0.0087967  -49.3803 0.0174917  -50.0229 0.0072244  -39.6200 0.0089225  -30.0201
          0.0058769  -19.6523 0.0020549  167.9072 0.0113000  -58.7952 0.0184971  -55.4952
          0.0090409 -114.4275 0.0590570  172.9149 0.9757362   72.9350 0.0341469   21.8387 ! row 3
          0.0123465   13.1018 0.0162226  -36.4410 0.0079705  -55.3315 0.0178911  -29.4861
          0.0524732  -20.7922 0.0069073  126.2402 0.0098303  -23.1517 0.0195147  -41.8194
          0.0079608  -47.7882 0.0114176  -34.3080 0.0162414  -25.5771 0.0071381  159.9338
          0.0099263  -59.4494 0.0201280  -52.1117 0.0062625  -49.4412 0.0081439  -35.6615
          0.0105516  -25.2092 0.0066936  163.5429 0.0120409  -68.4808 0.0209657  -58.2041
          0.0099340  105.6208 0.0118438   87.4460 0.0263020   16.5330 0.9687009   72.5615 ! row 4
          0.0817354  170.9927 0.0245328  156.4022 0.0096577  115.3520 0.0107780  118.2328
          0.0170016  135.5656 0.0528149  -23.2798 0.0080701   91.0790 0.0247697  133.1085
          0.0085542  121.7808 0.0096046  130.4343 0.0130414  141.5204 0.0162106  -27.4685
          0.0099788   89.6067 0.0236459  119.2592 0.0066824  119.7785 0.0073338  130.6713
          0.0092222  145.0116 0.0111474  -25.9583 0.0117822   89.0843 0.0237928  112.4591
          0.0040056   12.0104 0.0056247   10.7533 0.0100883    6.2367 0.0759798  166.5612 ! row 5
          0.9800415   70.1654 0.0758117  167.8442 0.0035658   16.2679 0.0039200   15.4847
          0.0036834   14.7691 0.0084105  -14.7010 0.0378024  -14.2361 0.0065576   58.7938
          0.0026975   19.3506 0.0023876   25.9317 0.0016785   47.6669 0.0039727  -26.6067
          0.0097752   -9.5165 0.0052215   43.7139 0.0019767   16.4031 0.0015629   27.2821
          0.0009212   81.7238 0.0027466  -26.3538 0.0076978   -9.1425 0.0051429   24.0559
          0.0114824  -37.7126 0.0141817  -38.3478 0.0166224  -37.9919 0.0240863  149.6182 ! row 6
          0.0706607  163.2904 0.9793556   70.2344 0.0109668  -33.9175 0.0121202  -34.0782
          0.0134700  -34.9382 0.0133351  137.9741 0.0110669  -19.5189 0.0496266  -26.2021
          0.0091521  -32.7709 0.0092423  -30.2522 0.0093817  -29.3865 0.0070510  145.6875
          0.0090817  -49.1231 0.0223908  -42.7948 0.0070181  -36.5360 0.0067883  -32.6953
          0.0060089  -29.1629 0.0046354  150.1338 0.0112665  -55.5623 0.0217290  -49.4941
          0.0414806  -23.9696 0.0156074  -28.8378 0.0082154  -61.5700 0.0100582  111.0960 ! row 7
          0.0037865   12.0660 0.0110551  -35.1593 0.9871018   70.6268 0.0633626  170.3032
          0.0102391 -129.7286 0.0067936   97.5717 0.0050947  -12.3883 0.0131010  -37.1936
          0.0201214  -22.1234 0.0072700  -15.0758 0.0020622  -56.8488 0.0024327   89.2640
          0.0070367  -37.1436 0.0141129  -42.4515 0.0090369  -26.9000 0.0047389  -13.8110
          0.0005066   23.1371 0.0007232   34.2308 0.0094704  -46.2917 0.0150621  -47.3597
          0.0082752  -40.4932 0.0433656  -23.9492 0.0177742  -28.4628 0.0107864  112.5163 ! row 8
          0.0042683   11.8117 0.0119442  -35.4125 0.0604038  167.2998 0.9819079   69.8826
          0.0659043  173.5450 0.0092370   65.6501 0.0063747   -6.6527 0.0142051  -36.9759
          0.0110991  -28.6084 0.0216107  -19.5546 0.0086344  -10.0097 0.0018571   85.2665
          0.0080055  -38.1254 0.0153618  -43.2192 0.0070008  -34.7121 0.0106330  -23.2276
          0.0052866   -4.3225 0.0007399 -151.6841 0.0104351  -49.9220 0.0163789  -48.6948
          0.0054237  -97.4820 0.0092715  -47.7502 0.0511295  -22.0643 0.0162186  136.6155 ! row 9
          0.0041520    8.3475 0.0130450  -35.8536 0.0081141 -130.3218 0.0620204  169.7427
          0.9802849   73.0988 0.0317994   10.8207 0.0115100    1.6686 0.0157709  -35.0050
          0.0060010  -48.0443 0.0131881  -25.5380 0.0264892  -17.2110 0.0040588  166.5048
          0.0091718  -43.2815 0.0169364  -44.7610 0.0049402  -49.2656 0.0082401  -30.1774
          0.0127051  -19.0708 0.0051493 -179.7555 0.0113804  -58.6130 0.0179402  -51.5047
          0.0062875   87.8836 0.0076131   76.0385 0.0085350   88.3438 0.0500308  -24.6518 ! row 10
          0.0090703   -2.0687 0.0123620  134.8938 0.0060690   93.0023 0.0073651   64.8725
          0.0267236    3.1256 0.9770681   72.8999 0.0816212  168.7185 0.0211802  160.1295
          0.0051704  107.4715 0.0056876  119.9263 0.0102242  143.0768 0.0251318  -17.1701
          0.0080805   73.1673 0.0164027  124.7928 0.0040826  107.9495 0.0046790  125.0923
          0.0078951  148.1187 0.0127768  -19.4702 0.0094523   82.7296 0.0170753  115.7785
          0.0071333  -13.5212 0.0094322  -13.6738 0.0124319  -14.5090 0.0086020  146.0349 ! row 11
          0.0365346  -15.4317 0.0137859  -13.4310 0.0066981   -9.8365 0.0080071   -8.6095
          0.0122311   -6.5475 0.0794751  164.7489 0.9803958   69.9283 0.0707626  170.0443
          0.0052887   -9.4785 0.0051198   -7.3055 0.0042364   -7.2728 0.0055818   -8.2466
          0.0197252  -15.1301 0.0079811  -10.0182 0.0039361  -13.5086 0.0034418   -9.9740
          0.0018252   -3.8034 0.0027070  -16.7970 0.0126650  -22.2758 0.0078965  -18.0442
          0.0150601  -35.1571 0.0186242  -35.8681 0.0217646  -36.1909 0.0269184  141.2243 ! row 12
          0.0017417  101.4467 0.0508098  -26.6644 0.0144040  -31.2163 0.0159885  -31.1170
          0.0181297  -30.7119 0.0241538  156.8374 0.0686160  165.9084 0.9765251   69.5958
          0.0120491  -30.0075 0.0122253  -27.3378 0.0125255  -26.2684 0.0093740  147.7997
          0.0138779  -41.5461 0.0358478  -35.8262 0.0092303  -33.7644 0.0089692  -29.7328
          0.0080197  -25.9356 0.0061567  153.7355 0.0155019  -52.1835 0.0296347  -45.7460
          0.0117454  -25.8989 0.0109636  -29.3012 0.0085934  -42.6806 0.0091497  123.3640 ! row 13
          0.0029232   12.8324 0.0098727  -32.2152 0.0201028  -23.3240 0.0119719  -25.2697
          0.0065839  -43.5144 0.0059380  117.1143 0.0041707  -12.7084 0.0117054  -33.9802
          0.9884882   70.8097 0.0654974  168.4426 0.0096850 -149.2640 0.0032509   77.2900
          0.0062619  -29.6785 0.0126425  -37.8383 0.0381238  -20.0077 0.0053788    3.3874
          0.0034641  176.2870 0.0024036   26.0393 0.0086845  -37.8507 0.0135617  -42.2867
          0.0062375  -30.2536 0.0144197  -23.6482 0.0123740  -27.1143 0.0099066  134.2608 ! row 14
          0.0023489   12.7683 0.0097185  -31.3201 0.0060158  -34.4847 0.0218357  -19.8201
          0.0144150  -20.9932 0.0063885  128.4245 0.0038895  -12.3814 0.0115595  -32.5226
          0.0626334  165.5440 0.9840809   70.0397 0.0685620  170.7618 0.0069487   38.7401
          0.0069600  -19.9471 0.0126882  -34.7514 0.0102477  -18.2581 0.0387703  -18.2083
          0.0059145   16.2706 0.0034212    2.2318 0.0094437  -33.4721 0.0137158  -39.4199
          0.0031470  -68.4242 0.0074113  -29.4410 0.0169844  -22.1912 0.0133106  148.4588 ! row 15
          0.0008114   10.7073 0.0094560  -33.2309 0.0029744  -90.9120 0.0066311  -32.0367
          0.0266330  -17.3711 0.0114778  151.3067 0.0027291  -20.9201 0.0113443  -33.1621
          0.0078515 -154.2696 0.0649461  167.0764 0.9835482   73.2918 0.0327773    2.2567
          0.0114814   -5.1227 0.0132527  -30.2011 0.0018045  -68.3991 0.0118678  -15.0605
          0.0462597  -14.9837 0.0020034 -113.5869 0.0111804  -33.6417 0.0144865  -37.1058
          0.0031811   70.0376 0.0033678   74.6233 0.0053292  137.2439 0.0154466  -24.9899 ! row 16
          0.0050230    2.5139 0.0063700  128.1317 0.0032832   68.7620 0.0037591   57.2080
          0.0035562   86.9141 0.0247828  -17.5492 0.0084576    1.1576 0.0074606  130.5548
          0.0030526   64.7244 0.0054949   31.0909 0.0283608   -5.9912 0.9816458   73.0441
          0.0809931  168.2756 0.0181283  170.0972 0.0020566   74.6272 0.0018350   96.9141
          0.0076515  156.9324 0.0458473  -14.3936 0.0085231   83.6532 0.0142582  140.7252
          0.0091827  -31.3725 0.0113687  -33.2177 0.0125326  -38.2823 0.0113911  115.9534 ! row 17
          0.0109536   -4.0497 0.0117306  -32.3387 0.0088872  -26.5908 0.0101882  -26.0656
          0.0119271  -26.3793 0.0076521  126.4140 0.0191078  -14.8428 0.0162721  -33.8557
          0.0075105  -24.4506 0.0082937  -19.2041 0.0121198  -12.3366 0.0786437  164.3446
          0.9776088   69.8266 0.0692507  174.7704 0.0056828  -28.6844 0.0056428  -24.3806
          0.0048824  -23.2610 0.0077218    0.8878 0.0418419  -21.8044 0.0103591  -38.3993
          0.0171601  -38.4034 0.0210643  -39.7182 0.0239520  -41.6437 0.0276627  132.1803 ! row 18
          0.0031904   48.1785 0.0263011  -36.4431 0.0165033  -34.1049 0.0183121  -34.1442
          0.0205183  -34.5860 0.0209011  141.3259 0.0037950  -53.6428 0.0372475  -36.3039
          0.0139253  -32.3465 0.0143776  -28.9585 0.0155950  -25.7428 0.0206584  165.5334
          0.0661468  170.8722 0.9710773   69.5108 0.0107144  -35.9538 0.0106271  -31.1998
          0.0101644  -26.0466 0.0089009  152.5084 0.0212819  -44.5746 0.0600886  -34.4332
          0.0085062  -25.7756 0.0084292  -30.4559 0.0071422  -40.7206 0.0074944  125.7833 ! row 19
          0.0022277   11.9733 0.0079919  -32.3677 0.0099876  -21.4088 0.0081781  -23.1284
          0.0057246  -35.5903 0.0048617  123.4870 0.0032274  -14.9695 0.0094640  -34.1111
          0.0375522  -21.0429 0.0103904  -16.5904 0.0020452  -72.4432 0.0022961   93.2861
          0.0049796  -30.4686 0.0102464  -37.5297 0.9888405   70.9159 0.0670574  168.2874
          0.0108842 -160.7502 0.0028721   36.5941 0.0069688  -35.5190 0.0109751  -41.6075
          0.0060510  -20.6767 0.0103858  -23.5106 0.0095297  -27.5610 0.0082875  138.2422 ! row 20
          0.0016218   14.6726 0.0078400  -29.7169 0.0046036  -20.2285 0.0120345  -17.3153
          0.0098847  -17.9892 0.0057226  142.3320 0.0027154  -17.2588 0.0093145  -31.0796
          0.0039365  -22.3515 0.0382662  -18.9625 0.0124988  -11.3544 0.0021742  107.8585
          0.0051059  -24.3949 0.0102749  -32.5772 0.0634705  164.6652 0.9841234   70.3329
          0.0704753  170.5805 0.0081178   23.4434 0.0077416  -22.6739 0.0110866  -35.6197
          0.0016864  -32.2268 0.0069931  -14.6477 0.0121879  -19.7496 0.0105647  152.1516 ! row 21
          0.0002491  100.5745 0.0069592  -28.7626 0.0009765 -107.4831 0.0049212  -11.8144
          0.0144542  -13.4256 0.0098477  162.5015 0.0010839  -54.3798 0.0083378  -29.5143
          0.0036012 -168.7570 0.0034274  -15.2046 0.0457253  -15.6062 0.0085802  164.9155
          0.0046207  -23.3424 0.0099486  -26.5344 0.0083624 -169.2307 0.0658929  166.0642
          0.9839404   73.4019 0.0362078    0.4194 0.0125027   -3.6164 0.0112469  -25.3364
          0.0013486   70.1047 0.0016973  133.6670 0.0072558  164.1183 0.0122190  -22.4521 ! row 22
          0.0032179   -3.7770 0.0051217  139.8967 0.0017855   52.1647 0.0012881   66.9909
          0.0042517  163.3176 0.0145561  -13.7730 0.0048771   10.3129 0.0060757  138.3320
          0.0024635   34.5691 0.0037832   17.5386 0.0022268   35.3618 0.0452820  -15.2576
          0.0094834    8.2884 0.0085570  148.7035 0.0022219   31.0833 0.0057071   12.1746
          0.0305687   -9.1137 0.9820090   73.0776 0.0813541  168.9150 0.0178644  175.2064
          0.0103881  -41.7762 0.0125423  -45.4246 0.0132453  -54.4827 0.0126409   95.0958 ! row 23
          0.0084813   -6.0307 0.0121030  -46.2081 0.0101638  -36.1683 0.0113876  -36.8022
          0.0125389  -40.2261 0.0095352  107.2304 0.0120609  -15.6767 0.0150263  -44.9630
          0.0088137  -32.6072 0.0097263  -27.5113 0.0118883  -23.8080 0.0067098  134.8656
          0.0391738  -23.0346 0.0197379  -41.4929 0.0068044  -35.6315 0.0073990  -27.1759
          0.0107862  -14.3201 0.0762417  164.2115 0.9736637   69.8674 0.0694495  179.1329
          0.0178070  -43.6291 0.0217852  -45.3206 0.0245177  -48.2352 0.0276714  122.9782 ! row 24
          0.0053140   21.0076 0.0250558  -43.5038 0.0171707  -39.1110 0.0190344  -39.2965
          0.0212390  -40.1687 0.0211317  133.4681 0.0042741  -37.0105 0.0307117  -44.4462
          0.0145610  -37.0235 0.0151081  -33.3872 0.0164903  -30.1979 0.0174497  153.1429
          0.0095457  -76.0553 0.0582259  -36.2883 0.0112202  -40.4470 0.0112605  -34.9918
          0.0113398  -27.4115 0.0170234  167.6745 0.0628351  175.5089 0.9654996   69.5400
35.500000 0.9861391   69.6156 0.0630751  170.9371 0.0117221 -128.7722 0.0088459   92.9422 ! row 1
          0.0039326    5.3918 0.0097730  -40.7840 0.0413114  -23.5701 0.0083320  -22.0509
          0.0037769 -106.0165 0.0052229   85.4681 0.0049678  -19.5392 0.0115915  -43.2021
          0.0101918  -30.3820 0.0059527  -24.2782 0.0023680  -37.6519 0.0016407   85.8881
          0.0063750  -44.7863 0.0123834  -49.1563 0.0067658  -35.3639 0.0047291  -28.6365
          0.0014129  -19.7541 0.0003007   49.8735 0.0082687  -53.9090 0.0131316  -54.2294
          0.0592395  167.6512 0.9792751   68.9211 0.0655477  175.2520 0.0128730   69.4317 ! row 2
          0.0060080   10.0594 0.0120229  -39.6986 0.0141937  -29.8226 0.0430168  -23.4476
          0.0093460  -22.3715 0.0056524   75.6777 0.0068073  -18.6741 0.0143343  -42.8157
          0.0088207  -38.0372 0.0124912  -28.0511 0.0075276  -21.0723 0.0018226  129.3842
          0.0078035  -49.1293 0.0151631  -50.4500 0.0064128  -41.3979 0.0081903  -31.4380
          0.0054474  -21.7622 0.0017574  167.2286 0.0097952  -59.1377 0.0159712  -56.1049
          0.0088396 -125.1182 0.0602369  171.1974 0.9767313   71.9401 0.0344381   16.8090 ! row 3
          0.0122388   11.9485 0.0143450  -35.0290 0.0065394  -60.8919 0.0163041  -29.7334
          0.0512505  -21.2719 0.0058264  127.1036 0.0091547  -22.6095 0.0171151  -41.1430
          0.0067098  -50.5067 0.0102267  -34.7869 0.0151900  -25.8441 0.0066978  159.6670
          0.0085119  -59.9557 0.0173689  -52.2191 0.0052952  -51.9541 0.0072626  -36.5612
          0.0097881  -26.2510 0.0062785  161.6486 0.0101416  -69.5118 0.0179747  -58.6131
          0.0082922   99.7083 0.0104358   78.8894 0.0271262   11.8799 0.9704796   71.5656 ! row 4
          0.0811353  169.9014 0.0227311  159.1066 0.0079400  110.7913 0.0089790  114.1408
          0.0150076  134.8317 0.0515668  -23.3704 0.0069609   82.1169 0.0216733  133.8068
          0.0070444  118.8138 0.0081299  128.9367 0.0116344  141.4866 0.0152943  -27.3482
          0.0082410   83.7165 0.0200924  118.8866 0.0055034  116.9924 0.0062175  129.2331
          0.0082714  144.5637 0.0103873  -26.7623 0.0096384   85.1673 0.0200664  111.8720
          0.0038170    8.3643 0.0054552    9.2793 0.0099699    6.3703 0.0753333  165.9476 ! row 5
          0.9796308   69.0709 0.0757982  167.0271 0.0033538   11.4016 0.0037579   12.6479
          0.0036006   14.3024 0.0084677  -16.4946 0.0377230  -16.1047 0.0059014   52.0437
          0.0025003   13.3256 0.0022022   21.3224 0.0015084   47.4114 0.0041201  -26.8193
          0.0096262  -12.4524 0.0045903   35.8386 0.0018423    9.8183 0.0014551   21.3164
          0.0008473   81.3600 0.0028066  -27.9704 0.0072740  -12.7348 0.0045143   17.2746
          0.0100457  -38.5075 0.0124048  -38.2174 0.0145980  -36.6845 0.0218519  152.4652 ! row 6
          0.0705872  163.0184 0.9798386   69.2501 0.0095934  -35.1189 0.0106056  -34.4058
          0.0117917  -34.2113 0.0115596  139.4940 0.0104544  -21.5027 0.0476776  -26.7085
          0.0080114  -34.2449 0.0080909  -31.1018 0.0081825  -29.3772 0.0059285  146.3799
          0.0082332  -49.3136 0.0200723  -43.0903 0.0061555  -38.0618 0.0059699  -33.6312
          0.0052755  -29.1427 0.0039308  151.3135 0.0099017  -56.1781 0.0190548  -50.1900
          0.0406719  -24.7959 0.0142169  -29.3600 0.0067188  -67.2029 0.0082901  106.4328 ! row 7
          0.0035582    8.2500 0.0096311  -36.1369 0.9869726   69.6157 0.0642875  168.9160
          0.0104581 -138.6500 0.0057168   88.1943 0.0048102  -13.5257 0.0114199  -38.1308
          0.0195024  -23.8235 0.0066793  -16.9743 0.0014608  -74.2667 0.0020466   69.6014
          0.0064356  -36.9966 0.0123017  -43.3836 0.0085869  -28.7754 0.0044366  -16.9568
          0.0002683   45.6203 0.0009509   11.1102 0.0084195  -46.3075 0.0130868  -48.2122
          0.0073729  -40.9185 0.0422377  -24.4446 0.0162241  -28.2260 0.0089621  108.1536 ! row 8
          0.0040973    9.4194 0.0104465  -35.5687 0.0612768  166.3099 0.9819567   68.8785
          0.0669063  171.8963 0.0088508   55.5606 0.0061526   -6.3499 0.0124396  -37.0541
          0.0101607  -30.5847 0.0208206  -20.7936 0.0080429  -10.7167 0.0016252   61.8371
          0.0073029  -37.1418 0.0134158  -43.5194 0.0063528  -36.3985 0.0101078  -24.4072
          0.0050638   -6.9060 0.0005680 -139.4061 0.0091752  -49.7786 0.0142240  -49.1154
          0.0048059 -110.2120 0.0081313  -47.0011 0.0499781  -22.2965 0.0143209  136.4715 ! row 9
          0.0040441    7.6931 0.0114692  -35.0062 0.0084755 -139.5448 0.0629538  168.5734
          0.9805488   72.0910 0.0325396    7.6623 0.0114218    2.2248 0.0139518  -33.7526
          0.0049895  -53.2934 0.0121316  -26.5952 0.0256716  -18.1652 0.0036422  166.2647
          0.0082510  -41.9109 0.0148096  -44.3211 0.0041736  -52.7868 0.0075427  -30.8535
          0.0121883  -20.0303 0.0050046  177.3505 0.0097561  -59.0051 0.0155297  -51.5301
          0.0053718   79.1356 0.0067318   67.0655 0.0072983   84.3628 0.0490522  -24.4489 ! row 10
          0.0090938   -4.6386 0.0108147  136.4695 0.0051980   83.3226 0.0071267   54.8383
          0.0274916    1.0686 0.9775117   71.8709 0.0812002  167.9474 0.0199615  162.9569
          0.0042463   99.9853 0.0047474  114.4571 0.0092389  141.7392 0.0246113  -18.0316
          0.0070525   65.3531 0.0141927  125.3971 0.0033394  101.7328 0.0039465  122.2550
          0.0072775  147.8081 0.0123854  -20.2372 0.0078837   76.0326 0.0144990  115.3365
          0.0065254  -14.4622 0.0086507  -13.6163 0.0114743  -13.9655 0.0069232  143.8428 ! row 11
          0.0365239  -16.9780 0.0127927  -14.9178 0.0061723  -11.0152 0.0074476   -8.3022
          0.0116432   -5.1244 0.0784574  164.3692 0.9799273   68.8577 0.0716043  168.8652
          0.0048557  -11.1316 0.0047171   -7.7394 0.0038597   -5.3795 0.0058471  -12.5219
          0.0193834  -16.8160 0.0073136  -11.4871 0.0036196  -15.2629 0.0031422  -10.7777
          0.0015614   -1.1270 0.0030079  -19.4983 0.0121216  -23.2710 0.0072461  -19.7195
          0.0131022  -36.0931 0.0162041  -36.1195 0.0190162  -35.6442 0.0235975  142.1493 ! row 12
          0.0013157   96.4885 0.0485047  -27.0655 0.0125502  -32.3532 0.0139648  -31.4411
          0.0159103  -29.9605 0.0220536  159.1470 0.0689730  165.2382 0.9773697   68.6874
          0.0104953  -31.3659 0.0106748  -28.0653 0.0109549  -26.0838 0.0079877  149.0867
          0.0126473  -42.2039 0.0327938  -36.0103 0.0080633  -35.1205 0.0078497  -30.5794
          0.0070116  -25.9228 0.0052142  154.7321 0.0136668  -52.4216 0.0261724  -46.0172
          0.0109120  -27.6001 0.0097869  -30.7073 0.0072412  -44.6011 0.0075325  120.9664 ! row 13
