! Touchstone file exported from HFSS 2019.2.0
!        File:           /home/fdurodie/Ansoft/2020-03-10 StrapOrientation/Reference/v5p0/v5p0_7/Vac_D=100/StrapOrientation_v5p0_7_reference_R2.aedt
!        Generated:      7:45:35 PM  Apr 19, 2020
!        Design:         HFSSDesign1
!        Project:        StrapOrientation_v5p0_7_reference_R2
!        Setup:          Single_65_MHz
!        Solution:       Sweep
!
! Variables:
!        BoxH = 285mm
!        BoxW = 315mm
!        FS_Strap_D = 10mm
!        FS_bar_E = 20mm
!        FS_bar_H = 32mm
!        FS_bar_L = 772mm
!        FS_bar_R = 5mm
!        FS_bar_S = 31mm
!        FS_bar_T = 21mm
!        FS_bar_overW = 27mm
!        FS_sup_D = 15mm
!        FS_sup_D2 = 10mm
!        FS_sup_D3 = 81mm
!        FS_sup_L = 131mm
!        FS_sup_W = 23mm
!        FS_sup_W2 = 9mm
!        Feeder_Deembed = Feeder_L-Loft_RR
!        Feeder_GW = 25mm
!        Feeder_H = 250mm
!        Feeder_L = 200mm
!        Feeder_W = 265mm
!        Loft_L = 100mm
!        Loft_RR = 50mm
!        Man_D = 31mm
!        Man_DX = 103.5mm
!        Man_D_center = 78mm
!        Man_Lbot = 282.082968380668mm
!        Man_Lmid = 200mm
!        Man_Ltop = 314.829858864228mm
!        Man_W = 60mm
!        Plasma_D = 200mm
!        PlugGap_S1_H = 2071mm
!        PlugGap_S1_L = 502mm
!        PlugGap_S1_W = 1620mm
!        PlugGap_S1_X0 = 100mm
!        PlugGap_S2_H = 2200mm
!        PlugGap_S2_L = 95mm
!        PlugGap_S2_W = 1748mm
!        PlugGap_S3_H = 2131mm
!        PlugGap_S3_L = 390mm
!        PlugGap_S3_W = 1684mm
!        PlugGap_S4_H = 2200mm
!        PlugGap_S4_L = 2227.5mm
!        PlugGap_S4_W = 1748mm
!        Plug_EqSept_D1 = 10mm
!        Plug_EqSept_D2 = 200mm
!        Plug_EqSept_G = 2mm
!        Plug_EqSept_H = 24.9999999999999mm
!        Plug_Ext_Hor_Septa_H = 37.5mm
!        Plug_Ext_Hor_Septa_W = 25mm
!        Plug_S1_H = 2015mm
!        Plug_S1_L = 527mm
!        Plug_S1_W = 1576mm
!        Plug_S1_X0 = 0mm
!        Plug_S1_X0_bot = 39.5894265209985mm
!        Plug_S1_X0_top = 5mm
!        Plug_S2_H = 2091mm
!        Plug_S2_L = 475mm
!        Plug_S2_W = 1644mm
!        Plug_S3_H = 2141mm
!        Plug_S3_L = 2212.5mm
!        Plug_S3_W = 1694mm
!        Plug_Shield_H = 2177mm
!        Plug_Shield_L = 800mm
!        Plug_Shield_W = 1730mm
!        StrapAbot = 4.8deg
!        StrapAtop = 6.7deg
!        StrapSC_L = 82mm
!        StrapSC_Lfdr = 100mm
!        StrapSC_W = 260mm
!        StrapSC_X0 = 0mm
!        StrapSC_X0_bot = 151.658057988658mm
!        StrapSC_X0_top = 155.628291329043mm
!        Strap_DX = 35mm
!        Strap_G = 17.5mm
!        Strap_H = 177.5mm
!        Strap_L0_bot = 117.934282728778mm
!        Strap_L0_top = 120.321965093804mm
!        Strap_L_bot = 178.124708423583mm
!        Strap_L_top = 178.720545238104mm
!        Strap_Lfdr = 42mm
!        Strap_R = 30mm
!        Strap_T = 30mm
!        Strap_W = 210mm
!        Strap_X0_bot = 69.6580579886579mm
!        Strap_X0_top = 73.6282913290435mm
!        Strap_X1_bot = 9.86848643368763mm
!        Strap_X1_top = 14.0380523567343mm
!        Strap_X2_bot = -5.03660501139529mm
!        Strap_X2_top = -6.81340539098998mm
!        Strap_X3_bot = 54.752966543575mm
!        Strap_X3_top = 52.7768335813192mm
!        Strap_X4_bot = 96.752966543575mm
!        Strap_X4_top = 94.7768335813192mm
!        Strap_Y0 = -172.5mm
!        Strap_Y1_bot = -117.520670599939mm
!        Strap_Y1_top = -119.50024422596mm
!        Strap_Y2_bot = 59.9793294000611mm
!        Strap_Y2_top = 57.99975577404mm
!        Strap_Y3_bot = 125mm
!        Strap_Y3_top = 125mm
!        VacExtW = 500mm
!        Vac_D = 100mm
!        Vac_DX = 53.4172238712063mm
!        Vac_ExtH = 500mm
!        Vac_ExtW = 500mm
!        orient = 1
!
!Data is not renormalized
# GHZ S MA
! Modal data exported
! Port[1] = 1:1
! Port[2] = 2:1
! Port[3] = 3:1
! Port[4] = 4:1
! Port[5] = 5:1
! Port[6] = 6:1
! Port[7] = 7:1
! Port[8] = 8:1
! Port[9] = 9:1
! Port[10] = 10:1
! Port[11] = 11:1
! Port[12] = 12:1
! Port[13] = 13:1
! Port[14] = 14:1
! Port[15] = 15:1
! Port[16] = 16:1
! Port[17] = 17:1
! Port[18] = 18:1
! Port[19] = 19:1
! Port[20] = 20:1
! Port[21] = 21:1
! Port[22] = 22:1
! Port[23] = 23:1
! Port[24] = 24:1
0.03                           0.981904025380743 75.209277780977  0.104911054318318 168.305370754017 0.019527047225142 -170.176845484602 0.00546213290079052 4.50911393261306 
                0.00303479132285767 1.04395289390723 0.00192807742683249 -2.84004642310821 0.0377786641879526 -12.8028741259941 0.00760955800518872 10.7001033335293 
                0.00425782926615456 155.671996697828 0.00411217908846485 -5.43983357067546 0.0028686534595823 -4.09080668362338 0.00203995965913276 -5.49299266751958 
                0.00655575967377916 -7.68129529739959 0.00329837394487003 0.933783102478666 0.000536773747364918 99.3072321753447 0.00155601342591313 -13.7319302529622 
                0.00162129744165824 -10.7317102973045 0.00148160099941547 -10.1914998404508 0.0031346563061112 -6.76945204768653 0.00207998533673754 -0.780020801506286 
                0.000581576015360369 26.3272722675707 0.000515699940980741 -29.3525661861317 0.000812146578279041 -17.1932144528154 0.000913376036089116 -13.3011089878802 
                0.104911054318318 168.305370754017 0.978024704516499 73.4937644865263 0.107788085327107 169.779892620219 0.0133207456926799 6.65158848152    
                0.00551196581131353 6.05935053586083 0.00302916949682553 1.0852118334381  0.00758580892252937 10.9111868153498 0.0352913199151964 -13.3206738497345 
                0.00862657646707408 9.90580914796918 0.00450285551240409 -11.042268990298 0.00387917109852416 -4.26455508119398 0.00285871685189476 -4.17447590585068 
                0.00322435813007083 1.23021758493738 0.00676056811080435 -6.30399349121565 0.00382808103010913 1.3722399836276  0.000283582636941453 -102.598939915017 
                0.00121792798983016 -15.1030868532557 0.00161763739809093 -11.1999413131506 0.00206845738452055 -0.725389876775922 0.00345993685299024 -4.17670214665261 
                0.00257461651788802 0.453635728384348 0.000903144141126849 -170.601780124304 0.00027569436988248 -53.8476351217915 0.000805529585822812 -17.356254002131 
                0.019527047225142 -170.176845484602 0.107788085327107 169.779892620219 0.983192861884176 78.646605234398  0.0504830047218249 -4.82780142011873 
                0.0134105556872826 6.79802504720498 0.00547549449911005 4.76202657566756 0.00426522325169233 155.578469856538 0.00866083975107101 9.84980196357123 
                0.0419957888920676 -10.2338106937092 0.00280666582575265 -172.938195571441 0.00444466893695658 -11.2490685504271 0.00407804994740865 -5.55882580596491 
                0.000576063601799423 109.488228721798 0.00374191512006129 1.15529636424556 0.0074566399776304 -4.8403378558268 0.00358960083909299 177.877974582051 
                0.000303634105955706 -112.449095014205 0.00152924195264992 -14.6051756260447 0.000576432134146046 26.6812686607606 0.0025774300721708 0.458320283329805 
                0.00398309149859898 -2.46696156584595 0.00276862897242246 179.071143291029 0.000913593129101946 -170.684260906197 0.000497748366428274 -30.4917300143039 
                0.00546213290079053 4.50911393261306 0.0133207456926799 6.65158848152    0.0504830047218249 -4.82780142011873 0.982946544278881 78.2403473270107 
                0.10984010126173 169.336299045803 0.0199440768493931 -170.41497777443 0.00408432307403584 -5.5269174190198 0.00447305319150183 -11.1128361609158 
                0.00283388692588246 -173.184585341883 0.0422057073819217 -10.6067417914759 0.00876963112780984 9.55909701301804 0.00425583527849109 154.566430573568 
                0.00155072782894011 -14.3987888315162 0.000295793395841063 -109.903505226187 0.00358740937660381 177.879697167952 0.00748037469436574 -5.28214452936133 
                0.00375723109937807 0.78387016826742 0.000570053421543804 105.608264742087 0.000516199175358577 -29.3760071961254 0.00091007478632909 -170.646213991258 
                0.00277714714109142 179.082059583623 0.00398919252163116 -2.87674651837393 0.0025756188048565 0.0696798775686526 0.000601296300260843 25.1990909454869 
                0.00303479132285767 1.04395289390725 0.00551196581131353 6.05935053586085 0.0134105556872826 6.79802504720498 0.109840101261729 169.336299045803 
                0.977761811022008 73.1081879010897 0.106593701301428 167.82400688617  0.00285809147075335 -4.10355994826804 0.0038814636414799 -4.18022994480346 
                0.00447676106091018 -11.1317429903788 0.00876831146665242 9.60508697212402 0.0349770629243347 -13.7152352166758 0.00768466574976309 10.3967271912164 
                0.00162120383835475 -11.1111568407212 0.00121166669233481 -15.0557040977433 0.000288420518079897 -106.112433461648 0.00385337196826801 0.979365943521213 
                0.00669290239436544 -6.68449907845821 0.00322800351780037 0.795546969707759 0.000810257515795063 -17.2050372922697 0.000270863377879746 -55.3516574745337 
                0.000925693003443613 -170.712695240391 0.00258430596912957 0.126915420585564 0.00341622525778311 -4.52329870804214 0.00206742683783529 -1.12220849870648 
                0.00192807742683248 -2.84004642310825 0.00302916949682553 1.0852118334381  0.00547549449911005 4.76202657566756 0.0199440768493931 -170.41497777443 
                0.106593701301428 167.82400688617  0.982000902520372 74.7683940895068 0.00203194472556213 -5.45656163922669 0.00285828850036522 -4.02016334225692 
                0.00409221051409361 -5.43263704685701 0.00422942722863566 154.660012057009 0.00771282804974932 10.1583702845217 0.037827666763272 -13.3720699415886 
                0.00147449909053062 -10.2023438856865 0.00160407430987802 -10.7500779505653 0.00152774053870437 -13.8322425834442 0.000534959340172481 95.7035139491607 
                0.00328497382772608 0.489387152077154 0.00647927282390483 -8.19673019782116 0.000907792775986582 -13.3609635279807 0.000794094860723393 -17.5407023331525 
                0.000484289206103003 -31.2985337072875 0.000612796154714941 24.5373515435532 0.00207146935138092 -1.20451393569647 0.00310230079073265 -7.24684517218062 
                0.0377786641879527 -12.802874125994 0.00758580892252937 10.9111868153498 0.00426522325169233 155.578469856538 0.00408432307403584 -5.5269174190198 
                0.00285809147075336 -4.10355994826799 0.00203194472556213 -5.45656163922669 0.981699362546493 75.1397096368522 0.104490773176328 168.347788397785 
                0.0201188874553301 -170.895984831115 0.00620950496087768 2.76633320217955 0.00368960580572164 -1.10361137090879 0.00250819752866468 -4.7644803707297 
                0.0178979129637932 -10.2941014151686 0.00560298419416163 3.56641355765682 0.00242100667107357 152.057173353973 0.00339398595788773 -8.10245593215039 
                0.00274040491478301 -6.90098548671237 0.00215178643836993 -7.81116674861594 0.00654388755051801 -7.65928789479853 0.00323339113274741 1.2333464562286  
                0.000573948824567192 108.835711205085 0.00154736090563354 -14.4148770871498 0.00161855844887513 -11.1430752827829 0.00147644857252158 -10.1500011637783 
                0.00760955800518873 10.7001033335293 0.0352913199151964 -13.3206738497345 0.00866083975107101 9.84980196357122 0.00447305319150183 -11.1128361609158 
                0.0038814636414799 -4.18022994480347 0.00285828850036522 -4.02016334225694 0.104490773176328 168.347788397785 0.977863875033141 73.3387639152644 
                0.107142465935261 169.795901402327 0.0140128940143674 5.95055283436379 0.00620037698852878 4.28944954817607 0.00369451447907744 -1.03315859141765 
                0.00560190173961559 3.54237831722786 0.0170807224478424 -10.1594327233406 0.00628406166250481 2.8583424492392  0.00249674933959446 -12.3377114378404 
                0.00311040337983643 -6.71249861372838 0.00274177283033818 -6.87810249927988 0.0032842416128849 0.996879643047224 0.0067614446445119 -6.28085417245722 
                0.0037397428395642 1.17566057459975 0.000294944179543153 -109.616787194366 0.00121369518570617 -15.0553938324438 0.00161212654489087 -10.7209982709731 
                0.00425782926615456 155.671996697828 0.00862657646707408 9.90580914796917 0.0419957888920676 -10.2338106937092 0.00283388692588246 -173.184585341883 
                0.00447676106091018 -11.1317429903788 0.00409221051409361 -5.43263704685702 0.0201188874553301 -170.895984831115 0.107142465935261 169.795901402327 
                0.982824435977511 78.4561841174662 0.0503242857402274 -4.57891056735135 0.014095285996887 6.00382642400157 0.00624151937479215 2.93764455718427 
                0.00243204004393347 152.116064537463 0.00630077805462232 2.77949000820773 0.0194575483417466 -8.14783360273724 0.00417273396488403 173.713030317947 
                0.00249151259786965 -12.422932974862 0.00339670910022785 -8.05248144570731 0.000538540717437901 99.722855210989  0.00383971001199145 1.33741568278483 
                0.00746214540426549 -4.85434154431641 0.00358652305137975 177.846347159213 0.000286338082356912 -105.664987748221 0.00153860341808188 -13.7985305391938 
                0.00411217908846484 -5.4398335706755 0.00450285551240409 -11.042268990298 0.00280666582575263 -172.938195571441 0.0422057073819216 -10.606741791476 
                0.00876831146665242 9.60508697212404 0.00422942722863566 154.660012057009 0.00620950496087768 2.76633320217956 0.0140128940143674 5.95055283436379 
                0.0503242857402274 -4.57891056735135 0.982616675986024 78.096840658492  0.10910066416636 169.294468655323 0.0205952964090321 -171.203759575434 
                0.00339316076119139 -8.08598963103269 0.00248823346677786 -12.3291543451265 0.00417258312666808 173.769572540816 0.019507757466064 -8.58793999700073 
                0.00633836886861224 2.41463237713735 0.00242771552651172 151.372212653076 0.00155040580333428 -13.7302203585819 0.000286006009192963 -104.728974432683 
                0.00360021132731588 177.911258591002 0.00746821629507783 -5.25722532830742 0.00383671971478209 0.939703872261061 0.00053658753580439 97.1750885792709 
                0.0028686534595823 -4.0908066836234 0.00387917109852416 -4.26455508119398 0.00444466893695658 -11.2490685504271 0.00876963112780984 9.55909701301805 
                0.0349770629243347 -13.7152352166758 0.00771282804974931 10.1583702845217 0.00368960580572164 -1.10361137090879 0.00620037698852878 4.28944954817607 
                0.014095285996887 6.00382642400161 0.10910066416636 169.294468655323 0.977628319787454 72.7892936961381 0.106092584002603 167.747439757091 
                0.00274156030879769 -6.9302437869593 0.00310732205400001 -6.71477961073208 0.00249055108839633 -12.3992215027797 0.00635330033823944 2.34854198910441 
                0.0170026944625304 -10.6319444248568 0.00563158676199507 3.06902029179061 0.0016169055450793 -10.7436997584783 0.00121047701070914 -15.1692837234459 
                0.000306135004864272 -113.856225185628 0.00375312379045394 0.761519575762333 0.00667007401879552 -6.75464212890949 0.00327296189555237 0.479155947334259 
                0.00203995965913276 -5.49299266751955 0.00285871685189476 -4.17447590585068 0.00407804994740865 -5.55882580596491 0.00425583527849109 154.566430573568 
                0.00768466574976308 10.3967271912164 0.037827666763272 -13.3720699415885 0.00250819752866468 -4.7644803707297 0.00369451447907744 -1.03315859141763 
                0.00624151937479215 2.93764455718427 0.0205952964090321 -171.203759575434 0.106092584002603 167.747439757091 0.981740865632075 74.5937999269918 
                0.00215158122780713 -7.81804537089511 0.00273792943144832 -6.85419821676992 0.00339078062021673 -8.00133358827318 0.0024192905436252 151.26511354475  
                0.00563823441209919 3.1023524836489  0.0178123552985742 -10.8070050570409 0.00147725169309651 -10.1709280457738 0.00161155913000496 -11.1988361003138 
                0.00152178536357889 -14.6422853530464 0.000566315224903553 104.978261685561 0.00321971186376643 0.754677516260234 0.00646171037819921 -8.17002591551944 
                0.00655575967377916 -7.68129529739959 0.00322435813007083 1.23021758493736 0.000576063601799423 109.488228721798 0.00155072782894011 -14.3987888315162 
                0.00162120383835475 -11.1111568407211 0.00147449909053063 -10.2023438856864 0.0178979129637932 -10.2941014151686 0.0056019017396156 3.54237831722785 
                0.00243204004393346 152.116064537463 0.00339316076119139 -8.08598963103269 0.00274156030879768 -6.9302437869593 0.00215158122780713 -7.81804537089513 
                0.981729063964365 75.1084050393853 0.104488483335325 168.331844933897 0.0201216927892976 -170.859366836502 0.00620790355152119 2.70453352017345 
                0.0036890053908821 -1.12874237436834 0.00250898088392452 -4.81361015308781 0.0379773665412724 -12.8595908118923 0.00764803990814825 10.6651319253872 
                0.0042523392894139 155.445844530412 0.00407880924178977 -5.58058524155602 0.00285481786673425 -4.20457922679609 0.00203504728303734 -5.4788288688421 
                0.00329837394487003 0.933783102478664 0.00676056811080435 -6.30399349121557 0.00374191512006129 1.15529636424556 0.000295793395841063 -109.903505226187 
                0.00121166669233481 -15.0557040977433 0.00160407430987802 -10.7500779505653 0.00560298419416163 3.56641355765682 0.0170807224478424 -10.1594327233406 
                0.00630077805462231 2.77949000820772 0.00248823346677786 -12.3291543451265 0.00310732205400001 -6.71477961073207 0.00273792943144832 -6.85419821676992 
                0.104488483335325 168.331844933897 0.977850807009035 73.3320393741115 0.107395668393762 169.793257385287 0.0140044475720916 5.93923370049004 
                0.0061947930205455 4.30963609044543 0.00369262778032374 -1.0428601212134 0.00764339950121407 10.6002353353044 0.0351575873912587 -13.2906918862512 
                0.00863597554962768 9.92324709093658 0.00446109140895185 -11.1215880583297 0.0038733449950826 -4.23250838795127 0.00286248941029047 -4.01596647217183 
                0.000536773747364919 99.3072321753447 0.00382808103010913 1.3722399836276  0.0074566399776304 -4.8403378558268 0.00358740937660382 177.879697167952 
                0.000288420518079897 -106.112433461648 0.00152774053870437 -13.8322425834442 0.00242100667107357 152.057173353973 0.00628406166250481 2.8583424492392  
                0.0194575483417467 -8.14783360273715 0.00417258312666808 173.769572540816 0.00249055108839633 -12.3992215027797 0.00339078062021673 -8.00133358827318 
                0.0201216927892976 -170.859366836502 0.107395668393763 169.793257385287 0.982848726515659 78.5019613685081 0.0502889331581218 -4.59019623809762 
                0.0140798901126003 6.032841741476   0.00623632742451479 2.9479818044458  0.00423128578514958 155.55227810995  0.00863398249979318 9.91677587354165 
                0.0419226227085995 -10.2015974438874 0.00282447816006228 -173.150216270658 0.00446626539441224 -11.1411833512231 0.0040975011088177 -5.40336351558561 
                0.00155601342591313 -13.7319302529622 0.000283582636941453 -102.598939915017 0.00358960083909299 177.877974582051 0.00748037469436574 -5.28214452936133 
                0.00385337196826801 0.979365943521227 0.000534959340172481 95.7035139491607 0.00339398595788772 -8.10245593215045 0.00249674933959446 -12.3377114378404 
                0.00417273396488403 173.713030317947 0.019507757466064 -8.58793999700074 0.00635330033823944 2.34854198910442 0.0024192905436252 151.26511354475  
                0.00620790355152119 2.70453352017345 0.0140044475720916 5.93923370049004 0.0502889331581218 -4.59019623809762 0.982617743509372 78.0284881031273 
